_________________________________
sensors_logger\pr03_PressHumTemp
BME280 id = 0x60
calib data:
Reg 0x88 : 0x29 6D E4 E4 64 32 00 79 90 AD D4 
Reg 0x92 : 0xD0 0B 95 95 1B 8B FF F9 FF AC 26 
Reg 0x9C : 0x0A D8 BD BD 10 00 4B 
Reg 0xE1 : 0x65 01 00 00 14 0C 00 1E 

counter :0x00
Measure---------------
Reg 0xF7 : 0x55 B5 00 00 80 03 00 73 43 

counter :0x01
Measure---------------
Reg 0xF7 : 0x55 B5 00 00 80 01 00 73 3F 

counter :0x02
Measure---------------
Reg 0xF7 : 0x55 B6 00 00 80 01 00 73 42 

counter :0x03
Measure---------------
Reg 0xF7 : 0x55 B3 00 00 7F FF 00 73 43 

counter :0x04
Measure---------------
Reg 0xF7 : 0x55 B3 00 00 7F FF 00 73 43 

counter :0x05
Measure---------------
Reg 0xF7 : 0x55 B5 00 00 7F FE 00 73 43 

counter :0x06
Measure---------------
Reg 0xF7 : 0x55 B7 00 00 80 01 00 73 43 

counter :0x07
Measure---------------
Reg 0xF7 : 0x55 B6 00 00 7F FE 00 73 43 

counter :0x08
Measure---------------
Reg 0xF7 : 0x55 B6 00 00 7F FC 00 73 45 

counter :0x09
Measure---------------
Reg 0xF7 : 0x55 B6 00 00 7F FF 00 73 46 

counter :0x0A
Measure---------------
Reg 0xF7 : 0x55 B3 00 00 80 00 00 73 43 

counter :0x0B
Measure---------------
Reg 0xF7 : 0x55 B3 00 00 7F FD 00 73 45 

counter :0x0C
Measure---------------
Reg 0xF7 : 0x55 B5 00 00 7F FE 00 73 81 
